Time Stamp,ID,Extended,Dir,Bus,LEN,D1,D2,D3,D4,D5,D6,D7,D8
3016672,00000100,false,Rx,0,8,00,00,00,00,B3,01,F0,00,
3026579,00000101,false,Rx,0,8,00,00,00,00,00,00,00,00,
3036499,00000102,false,Rx,0,8,02,9A,01,00,00,C8,03,00,
3046982,00000200,false,Rx,0,8,FF,00,00,00,FA,00,FF,FF,
3081897,00000108,false,Rx,0,8,01,F4,01,0F,B3,01,00,00,
3082179,00000109,false,Rx,0,8,02,00,00,00,01,20,FF,FF,
3082455,00000208,false,Rx,0,8,FF,F4,01,FF,00,00,00,00,
3082618,00000209,false,Rx,0,8,02,00,00,00,00,00,00,00,
3116834,00000100,false,Rx,0,8,00,00,00,00,B3,01,64,00,
3126847,00000101,false,Rx,0,8,00,00,00,00,00,F0,00,00,
3136829,00000102,false,Rx,0,8,02,9A,01,00,00,C8,01,00,
3146887,00000200,false,Rx,0,8,FF,00,00,00,FA,00,FF,FF,
3181877,00000108,false,Rx,0,8,01,F4,01,0F,B3,01,00,00,
3182037,00000109,false,Rx,0,8,02,00,00,00,01,20,FF,FF,
3182314,00000208,false,Rx,0,8,FF,F4,01,F0,00,00,FA,00,
3182594,00000209,false,Rx,0,8,02,00,00,00,00,00,00,00,
3216889,00000100,false,Rx,0,8,00,00,00,00,B3,01,64,00,
3226910,00000101,false,Rx,0,8,00,00,00,00,00,F0,00,00,
3237008,00000102,false,Rx,0,8,02,9A,01,00,00,C8,01,00,
3246944,00000200,false,Rx,0,8,FF,00,00,00,FA,00,FF,FF,
3281891,00000108,false,Rx,0,8,01,F4,01,0F,B3,01,00,00,
3282167,00000109,false,Rx,0,8,02,00,00,00,01,20,FF,FF,
3282324,00000208,false,Rx,0,8,FF,F4,01,F0,00,00,FA,00,
3282602,00000209,false,Rx,0,8,02,00,00,00,00,00,00,00,
3317077,00000100,false,Rx,0,8,00,00,00,00,B3,01,64,00,
3326982,00000101,false,Rx,0,8,00,00,00,00,00,F0,00,00,
3337023,00000102,false,Rx,0,8,02,9A,01,00,00,C8,01,00,
3347027,00000200,false,Rx,0,8,FF,00,00,00,FA,00,FF,FF,
3381983,00000108,false,Rx,0,8,01,F4,01,0F,B3,01,00,00,
3382143,00000109,false,Rx,0,8,02,00,00,00,01,20,FF,FF,
3382420,00000208,false,Rx,0,8,FF,F4,01,F0,00,00,FA,00,
3382702,00000209,false,Rx,0,8,02,00,00,00,00,00,00,00,
3417155,00000100,false,Rx,0,8,00,00,00,00,B3,01,64,00,
3427171,00000101,false,Rx,0,8,00,00,00,00,00,F0,00,00,
3437234,00000102,false,Rx,0,8,02,9A,01,00,00,C8,01,00,
3447362,00000200,false,Rx,0,8,FF,00,00,00,FA,00,FF,FF,
3481765,00000108,false,Rx,0,8,01,F4,01,0F,B3,01,00,00,
3482045,00000109,false,Rx,0,8,02,00,00,00,01,20,FF,FF,
3482320,00000208,false,Rx,0,8,FF,F4,01,F0,00,00,FA,00,
3482487,00000209,false,Rx,0,8,02,00,00,00,00,00,00,00,
3517259,00000100,false,Rx,0,8,00,00,00,00,B3,01,64,00,
3527276,00000101,false,Rx,0,8,00,00,00,00,00,F0,00,00,
3537224,00000102,false,Rx,0,8,02,9A,01,00,00,C8,01,00,
3547276,00000200,false,Rx,0,8,FF,00,00,00,FA,00,FF,FF,
3581784,00000108,false,Rx,0,8,01,F4,01,0F,B3,01,00,00,
3582120,00000109,false,Rx,0,8,02,00,00,00,01,20,FF,FF,
3582292,00000208,false,Rx,0,8,FF,F4,01,F0,00,00,FA,00,
3582572,00000209,false,Rx,0,8,02,00,00,00,00,00,00,00,
3617365,00000100,false,Rx,0,8,00,00,00,00,B3,01,64,00,
3627389,00000101,false,Rx,0,8,00,00,00,00,00,F0,00,00,
3637450,00000102,false,Rx,0,8,02,9A,01,00,00,C8,01,00,
3647368,00000200,false,Rx,0,8,FF,00,00,00,FA,00,FF,FF,
3681922,00000108,false,Rx,0,8,01,F4,01,0F,B3,01,00,00,
3682200,00000109,false,Rx,0,8,02,00,00,00,01,20,FF,FF,
3682476,00000208,false,Rx,0,8,FF,F4,01,F0,00,00,FA,00,
3682764,00000209,false,Rx,0,8,02,00,00,00,00,00,00,00,
3717484,00000100,false,Rx,0,8,00,00,00,00,B3,01,64,00,
3727504,00000101,false,Rx,0,8,00,00,00,00,00,F0,00,00,
3737450,00000102,false,Rx,0,8,02,9A,01,00,00,C8,01,00,
3747445,00000200,false,Rx,0,8,FF,00,00,00,FA,00,43,B2,
3781824,00000108,false,Rx,0,8,01,F4,01,0F,B3,01,00,00,
3782101,00000109,false,Rx,0,8,02,00,00,00,01,20,FF,FF,
3782376,00000208,false,Rx,0,8,FF,F4,01,F0,00,00,FA,00,
3782536,00000209,false,Rx,0,8,02,00,00,00,00,00,00,00,
3817508,00000100,false,Rx,0,8,00,00,00,00,B3,01,64,00,
3827538,00000101,false,Rx,0,8,00,00,00,00,00,F0,00,00,
3837605,00000102,false,Rx,0,8,02,9A,01,00,00,C8,01,00,
3847621,00000200,false,Rx,0,8,FF,00,00,00,FA,00,43,B2,
3881788,00000108,false,Rx,0,8,01,F4,01,0F,B3,01,00,00,
3882074,00000109,false,Rx,0,8,02,00,00,00,01,20,FF,FF,
3882350,00000208,false,Rx,0,8,FF,F4,01,F0,00,00,FA,00,
3882509,00000209,false,Rx,0,8,02,00,00,00,00,00,00,00,
3917647,00000100,false,Rx,0,8,00,00,00,00,B3,01,64,00,
3927670,00000101,false,Rx,0,8,00,00,00,00,00,F0,00,00,
3937621,00000102,false,Rx,0,8,02,9A,01,00,00,C8,01,00,
3947873,00000200,false,Rx,0,8,FF,00,00,00,FA,00,43,B2,
3981687,00000108,false,Rx,0,8,01,F4,01,0F,B3,01,00,00,
3981974,00000109,false,Rx,0,8,02,00,00,00,01,20,FF,FF,
3982250,00000208,false,Rx,0,8,FF,F4,01,F0,00,00,FA,00,
3982525,00000209,false,Rx,0,8,02,00,00,00,00,00,00,00,
4017714,00000100,false,Rx,0,8,00,00,00,00,B3,01,64,00,
4027742,00000101,false,Rx,0,8,00,00,00,00,00,F0,00,00,
4037804,00000102,false,Rx,0,8,02,9A,01,00,00,C8,01,00,
4047837,00000200,false,Rx,0,8,FF,00,00,00,FA,00,43,B2,
4081766,00000108,false,Rx,0,8,01,F4,01,0F,B3,01,00,00,
4082043,00000109,false,Rx,0,8,02,00,00,00,01,20,00,00,
4082202,00000208,false,Rx,0,8,FF,F4,01,F0,00,00,FA,00,
4082479,00000209,false,Rx,0,8,02,00,00,00,00,00,00,00,
4117865,00000100,false,Rx,0,8,00,00,00,00,B3,01,64,00,
4127887,00000101,false,Rx,0,8,00,00,00,00,00,F0,00,00,
4137835,00000102,false,Rx,0,8,02,9A,01,00,00,C8,01,00,
4147852,00000200,false,Rx,0,8,FF,00,00,00,FA,00,43,B2,
4181783,00000108,false,Rx,0,8,01,F4,01,0F,B3,01,00,00,
4181944,00000109,false,Rx,0,8,02,00,00,00,01,20,00,00,
4182220,00000208,false,Rx,0,8,FF,F4,01,F0,00,00,FA,00,
4182496,00000209,false,Rx,0,8,02,00,00,00,00,00,00,00,
4217964,00000100,false,Rx,0,8,00,00,00,00,B3,01,64,00,
4227985,00000101,false,Rx,0,8,00,00,00,00,00,F0,00,00,
4238051,00000102,false,Rx,0,8,02,9A,01,00,00,C8,01,00,
4247957,00000200,false,Rx,0,8,FF,00,00,00,FA,00,43,B2,
4281710,00000108,false,Rx,0,8,01,F4,01,0F,B3,01,00,00,
4281995,00000109,false,Rx,0,8,02,00,00,00,01,20,00,00,
4282154,00000208,false,Rx,0,8,FF,F4,01,F0,00,00,FA,00,
4282429,00000209,false,Rx,0,8,02,00,00,00,00,00,00,00,
4318139,00000100,false,Rx,0,8,00,00,00,00,B3,01,64,00,
4328053,00000101,false,Rx,0,8,00,00,00,00,00,F0,00,00,
4338009,00000102,false,Rx,0,8,02,9A,01,00,00,C8,01,00,
4348030,00000200,false,Rx,0,8,FF,00,00,00,FA,00,43,B2,
4381657,00000108,false,Rx,0,8,01,F4,01,0F,B3,01,00,00,
4381944,00000109,false,Rx,0,8,02,00,00,00,01,20,00,00,
4382220,00000208,false,Rx,0,8,FF,F4,01,F0,00,00,FA,00,
4382495,00000209,false,Rx,0,8,02,00,00,00,00,00,00,00,
4418145,00000100,false,Rx,0,8,00,00,00,00,B3,01,64,00,
4428165,00000101,false,Rx,0,8,00,00,00,00,00,F0,00,00,
4438225,00000102,false,Rx,0,8,02,9A,01,00,00,C8,01,00,
4448357,00000200,false,Rx,0,8,FF,00,00,00,FA,00,43,B2,
4481770,00000108,false,Rx,0,8,01,F4,01,0F,B3,01,00,00,
4481930,00000109,false,Rx,0,8,02,00,00,00,01,20,00,00,
4482205,00000208,false,Rx,0,8,FF,F4,01,F0,00,00,FA,00,
4482483,00000209,false,Rx,0,8,02,00,00,00,00,00,00,00,
4518299,00000100,false,Rx,0,8,00,00,00,00,B3,01,64,00,
4528206,00000101,false,Rx,0,8,00,00,00,00,00,F0,00,00,
4538275,00000102,false,Rx,0,8,02,9A,01,00,00,C8,01,00,
4548298,00000200,false,Rx,0,8,FF,00,00,00,FA,00,43,B2,
4581708,00000108,false,Rx,0,8,01,F4,01,0F,B3,01,00,00,
4581998,00000109,false,Rx,0,8,02,00,00,00,01,20,00,00,
4582273,00000208,false,Rx,0,8,FF,F4,01,F0,00,00,FA,00,
4582549,00000209,false,Rx,0,8,02,00,00,00,00,00,00,00,
4618336,00000100,false,Rx,0,8,00,00,00,00,B3,01,64,00,
4628352,00000101,false,Rx,0,8,00,00,00,00,00,F0,00,00,
4638416,00000102,false,Rx,0,8,02,9A,01,00,00,C8,01,00,
4648433,00000200,false,Rx,0,8,FF,00,00,00,FA,00,43,B2,
4681820,00000108,false,Rx,0,8,01,F4,01,0F,B3,01,00,00,
4681993,00000109,false,Rx,0,8,02,00,00,00,01,20,00,00,
4682267,00000208,false,Rx,0,8,FF,F4,01,F0,00,00,FA,00,
4682546,00000209,false,Rx,0,8,02,00,00,00,00,00,00,00,
4718545,00000100,false,Rx,0,8,00,00,00,00,B3,01,64,00,
4728447,00000101,false,Rx,0,8,00,00,00,00,00,F0,00,00,
4738514,00000102,false,Rx,0,8,02,9A,01,00,00,C8,01,00,
4748541,00000200,false,Rx,0,8,FF,00,00,00,FA,00,43,B2,
4781702,00000108,false,Rx,0,8,01,F4,01,0F,B3,01,00,00,
4781987,00000109,false,Rx,0,8,02,00,00,00,01,20,00,00,
4782146,00000208,false,Rx,0,8,FF,F4,01,F0,00,00,FA,00,
4782420,00000209,false,Rx,0,8,02,00,00,00,00,00,00,00,
4818545,00000100,false,Rx,0,8,00,00,00,00,B3,01,64,00,
4828603,00000101,false,Rx,0,8,00,00,00,00,00,F0,00,00,
4838673,00000102,false,Rx,0,8,02,9A,01,00,00,C8,01,00,
4848579,00000200,false,Rx,0,8,FF,00,00,00,FA,00,43,B2,
4881739,00000108,false,Rx,0,8,01,F4,01,0F,B3,01,00,00,
4881898,00000109,false,Rx,0,8,02,00,00,00,01,20,00,00,
4882175,00000208,false,Rx,0,8,FF,F4,01,F0,00,00,FA,00,
4882450,00000209,false,Rx,0,8,02,00,00,00,00,00,00,00,
4918806,00000100,false,Rx,0,8,00,00,00,00,B3,01,64,00,
4928712,00000101,false,Rx,0,8,00,00,00,00,00,F0,00,00,
4938755,00000102,false,Rx,0,8,02,9A,01,00,00,C8,01,00,
4948919,00000200,false,Rx,0,8,FF,00,00,00,FA,00,43,B2,
4981738,00000108,false,Rx,0,8,01,F4,01,0F,B3,01,00,00,
4982016,00000109,false,Rx,0,8,02,00,00,00,01,20,00,00,
4982292,00000208,false,Rx,0,8,FF,F4,01,F0,00,00,FA,00,
4982451,00000209,false,Rx,0,8,02,00,00,00,00,00,00,00,
5018850,00000100,false,Rx,0,8,00,00,00,00,B3,01,64,00,
5028758,00000101,false,Rx,0,8,00,00,00,00,00,F0,00,00,
5038824,00000102,false,Rx,0,8,02,9A,01,00,00,C8,01,00,
5048848,00000200,false,Rx,0,8,FF,00,00,00,FA,00,43,B2,
5081642,00000108,false,Rx,0,8,01,F4,01,0F,B3,01,00,00,
5081930,00000109,false,Rx,0,8,02,00,00,00,01,20,00,00,
5082206,00000208,false,Rx,0,8,FF,F4,01,F0,00,00,FA,00,
5082481,00000209,false,Rx,0,8,02,00,00,00,00,00,00,00,
5119057,00000100,false,Rx,0,8,00,00,00,00,B3,01,64,00,
5129042,00000101,false,Rx,0,8,00,00,00,00,00,DE,00,00,
5138993,00000102,false,Rx,0,8,02,9A,01,00,00,C8,49,00,
5149009,00000200,false,Rx,0,8,FF,00,00,00,FA,00,43,B2,
5181659,00000108,false,Rx,0,8,01,F4,01,0F,B3,01,00,00,
5181946,00000109,false,Rx,0,8,02,00,00,00,01,20,00,00,
5182222,00000208,false,Rx,0,8,FF,F4,01,F0,00,00,FA,00,
5182381,00000209,false,Rx,0,8,02,00,00,00,00,00,00,00,
5219096,00000100,false,Rx,0,8,00,00,00,00,B3,01,64,00,
5229106,00000101,false,Rx,0,8,00,00,00,00,00,DE,00,00,
5239169,00000102,false,Rx,0,8,02,9A,01,00,00,C8,49,00,
5249189,00000200,false,Rx,0,8,FF,00,00,00,FA,00,43,B2,
5281613,00000108,false,Rx,0,8,01,F4,01,0F,B3,01,00,00,
5281956,00000109,false,Rx,0,8,02,00,00,00,01,20,00,00,
5282114,00000208,false,Rx,0,8,FF,F4,01,F0,00,00,FA,00,
5282391,00000209,false,Rx,0,8,02,00,00,00,00,00,00,00,
5319262,00000100,false,Rx,0,8,00,00,00,00,B3,01,64,00,
5329180,00000101,false,Rx,0,8,00,00,00,00,00,DE,00,00,
5339245,00000102,false,Rx,0,8,02,9A,01,00,00,C8,49,00,
5349265,00000200,false,Rx,0,8,FF,00,00,00,FA,00,43,B2,
5381646,00000108,false,Rx,0,8,01,F4,01,0F,B3,01,00,00,
5381930,00000109,false,Rx,0,8,02,00,00,00,01,20,00,00,
5382090,00000208,false,Rx,0,8,FF,F4,01,F0,00,00,FA,00,
5382367,00000209,false,Rx,0,8,02,00,00,00,00,00,00,00,
5419316,00000100,false,Rx,0,8,00,00,00,00,B3,01,64,00,
5429297,00000101,false,Rx,0,8,00,00,00,00,00,DE,00,00,
5439403,00000102,false,Rx,0,8,02,9A,01,00,00,C8,49,00,
5449427,00000200,false,Rx,0,8,FF,00,00,00,FA,00,43,B2,
5481689,00000108,false,Rx,0,8,01,F4,01,0F,B3,01,00,00,
5481974,00000109,false,Rx,0,8,02,00,00,00,01,20,00,00,
5482133,00000208,false,Rx,0,8,FF,F4,01,F0,00,00,FA,00,
5482408,00000209,false,Rx,0,8,02,00,00,00,00,00,00,00,
5519501,00000100,false,Rx,0,8,00,00,00,00,B3,01,64,00,
5529416,00000101,false,Rx,0,8,00,00,00,00,00,DE,00,00,
5539477,00000102,false,Rx,0,8,02,9A,01,00,00,C8,49,00,
5549498,00000200,false,Rx,0,8,FF,00,00,00,FA,00,43,B2,
5581647,00000108,false,Rx,0,8,01,F4,01,0F,B3,01,00,00,
5581931,00000109,false,Rx,0,8,02,00,00,00,01,20,00,00,
5582090,00000208,false,Rx,0,8,FF,F4,01,F0,00,00,FA,00,
5582366,00000209,false,Rx,0,8,02,00,00,00,00,00,00,00,
5619596,00000100,false,Rx,0,8,00,00,00,00,B3,01,64,00,
5629500,00000101,false,Rx,0,8,00,00,00,00,00,DE,00,00,
5639524,00000102,false,Rx,0,8,02,9A,01,00,00,C8,49,00,
5649544,00000200,false,Rx,0,8,FF,00,00,00,FA,00,43,B2,
5681731,00000108,false,Rx,0,8,01,F4,01,0F,B3,01,00,00,
5681891,00000109,false,Rx,0,8,02,00,00,00,01,20,00,00,
5682168,00000208,false,Rx,0,8,FF,F4,01,F0,00,00,FA,00,
5682444,00000209,false,Rx,0,8,02,00,00,00,00,00,00,00,
5719621,00000100,false,Rx,0,8,00,00,00,00,B3,01,64,00,
5729643,00000101,false,Rx,0,8,00,00,00,00,00,DE,00,00,
5739599,00000102,false,Rx,0,8,02,9A,01,00,00,C8,49,00,
5749618,00000200,false,Rx,0,8,FF,00,00,00,FA,00,43,B2,
5781679,00000108,false,Rx,0,8,01,F4,01,0F,B3,01,00,00,
5781849,00000109,false,Rx,0,8,02,00,00,00,01,20,00,00,
5782123,00000208,false,Rx,0,8,FF,F4,01,F0,00,00,FA,00,
5782399,00000209,false,Rx,0,8,02,00,00,00,00,00,00,00,
5819766,00000100,false,Rx,0,8,00,00,00,00,B3,01,64,00,
5829656,00000101,false,Rx,0,8,00,00,00,00,00,DE,00,00,
5839734,00000102,false,Rx,0,8,02,9A,01,00,00,C8,49,00,
5849761,00000200,false,Rx,0,8,FF,00,00,00,FA,00,43,B2,
5881576,00000108,false,Rx,0,8,01,F4,01,0F,B3,01,00,00,
5881864,00000109,false,Rx,0,8,02,00,00,00,01,20,00,00,
5882139,00000208,false,Rx,0,8,FF,F4,01,F0,00,00,FA,00,
5882298,00000209,false,Rx,0,8,02,00,00,00,00,00,00,00,
5919855,00000100,false,Rx,0,8,00,00,00,00,B3,01,64,00,
5929750,00000101,false,Rx,0,8,00,FF,3C,00,00,DE,00,00,
5939815,00000102,false,Rx,0,8,02,9A,01,00,00,C8,49,00,
5949975,00000200,false,Rx,0,8,FF,00,00,00,FA,00,43,B2,
5981577,00000108,false,Rx,0,8,01,F4,01,0F,B3,01,00,00,
5981864,00000109,false,Rx,0,8,02,00,00,00,01,20,00,00,
5982139,00000208,false,Rx,0,8,FF,F4,01,F0,00,00,FA,00,
5982303,00000209,false,Rx,0,8,02,00,00,00,00,00,00,00,
6019963,00000100,false,Rx,0,8,00,00,00,00,B3,01,64,00,
6029870,00000101,false,Rx,0,8,00,FF,3C,00,00,DE,00,00,
6039996,00000102,false,Rx,0,8,02,9A,01,00,00,C8,49,00,
6049959,00000200,false,Rx,0,8,FF,00,00,00,FA,00,43,B2,
6081669,00000108,false,Rx,0,8,01,F4,01,0F,B3,01,00,00,
6081838,00000109,false,Rx,0,8,02,00,00,00,01,20,00,00,
6082114,00000208,false,Rx,0,8,FF,F4,01,F0,00,00,FA,00,
6082390,00000209,false,Rx,0,8,02,00,00,00,00,00,00,00,
6120076,00000100,false,Rx,0,8,00,00,00,00,B3,01,64,00,
6129984,00000101,false,Rx,0,8,00,FF,3C,00,00,DE,00,00,
6140054,00000102,false,Rx,0,8,02,9A,01,00,00,C8,49,00,
6150070,00000200,false,Rx,0,8,FF,00,00,00,FA,00,43,B2,
6181679,00000108,false,Rx,0,8,01,F4,01,0F,B3,01,00,00,
6181848,00000109,false,Rx,0,8,02,00,00,00,01,20,00,00,
6182125,00000208,false,Rx,0,8,FF,F4,01,F0,00,00,FA,00,
6182400,00000209,false,Rx,0,8,02,00,00,00,00,00,00,00,
6220184,00000100,false,Rx,0,8,00,00,00,00,B3,01,64,00,
6230056,00000101,false,Rx,0,8,00,FF,3C,00,00,DE,00,00,
6240158,00000102,false,Rx,0,8,02,9A,01,00,00,C8,49,00,
6250111,00000200,false,Rx,0,8,FF,00,00,00,FA,00,43,B2,
6281657,00000108,false,Rx,0,8,01,F4,01,0F,B3,01,00,00,
6281945,00000109,false,Rx,0,8,02,00,00,00,01,20,00,00,
6282221,00000208,false,Rx,0,8,FF,F4,01,F0,00,00,FA,00,
6282496,00000209,false,Rx,0,8,02,00,00,00,00,00,00,00,
6320320,00000100,false,Rx,0,8,00,00,00,00,B3,01,64,00,
6330225,00000101,false,Rx,0,8,00,FF,3C,00,00,DE,00,00,
6340177,00000102,false,Rx,0,8,02,9A,01,00,00,C8,49,00,
6350203,00000200,false,Rx,0,8,FF,00,00,00,FA,00,43,B2,
6381584,00000108,false,Rx,0,8,01,F4,01,0F,B3,01,00,00,
6381863,00000109,false,Rx,0,8,02,00,00,00,01,20,00,00,
6382022,00000208,false,Rx,0,8,FF,F4,01,F0,00,00,FA,00,
6382296,00000209,false,Rx,0,8,02,00,00,00,00,00,00,00,
6420278,00000100,false,Rx,0,8,00,00,00,00,B3,01,64,00,
6430313,00000101,false,Rx,0,8,00,FF,3C,00,00,DE,00,00,
6440382,00000102,false,Rx,0,8,02,9A,01,00,00,C8,49,00,
6450485,00000200,false,Rx,0,8,FF,00,00,00,FA,00,43,B2,
6481622,00000108,false,Rx,0,8,01,F4,01,0F,B3,01,00,00,
6481789,00000109,false,Rx,0,8,02,00,00,00,01,20,00,00,
6482066,00000208,false,Rx,0,8,FF,F4,01,F0,00,00,FA,00,
6482342,00000209,false,Rx,0,8,02,00,00,00,00,00,00,00,
6520528,00000100,false,Rx,0,8,00,00,00,00,B3,01,64,00,
6530362,00000101,false,Rx,0,8,00,FF,3C,00,00,DE,00,00,
6540433,00000102,false,Rx,0,8,02,9A,01,00,00,C8,49,00,
6550450,00000200,false,Rx,0,8,FF,00,00,00,FA,00,43,B2,
6581615,00000108,false,Rx,0,8,01,F4,01,0F,B3,01,00,00,
6581900,00000109,false,Rx,0,8,02,00,00,00,01,20,00,00,
6582059,00000208,false,Rx,0,8,FF,F4,01,F0,00,00,FA,00,
6582336,00000209,false,Rx,0,8,02,00,00,00,00,00,00,00,
6620550,00000100,false,Rx,0,8,00,00,00,00,B3,01,64,00,
6630456,00000101,false,Rx,0,8,00,FF,3C,00,00,DE,00,00,
6640522,00000102,false,Rx,0,8,02,9A,01,00,00,C8,49,00,
6650544,00000200,false,Rx,0,8,FF,00,00,00,FA,00,43,B2,
6681563,00000108,false,Rx,0,8,01,F4,01,0F,B3,01,00,00,
6681839,00000109,false,Rx,0,8,02,00,00,00,01,20,00,00,
6682007,00000208,false,Rx,0,8,FF,F4,01,F0,00,00,FA,00,
6682283,00000209,false,Rx,0,8,02,00,00,00,00,00,00,00,
6720686,00000100,false,Rx,0,8,00,00,00,00,B3,01,64,00,
6730640,00000101,false,Rx,0,8,00,FF,3C,00,00,DE,00,00,
6740587,00000102,false,Rx,0,8,02,9A,01,00,00,C8,49,00,
6750615,00000200,false,Rx,0,8,FF,00,00,00,FA,00,43,B2,
6786986,00000108,false,Rx,0,8,01,F4,01,0F,B3,01,00,00,
6787262,00000109,false,Rx,0,8,02,00,00,00,01,20,00,00,
6787421,00000208,false,Rx,0,8,FF,F4,01,F0,00,00,FA,00,
6787699,00000209,false,Rx,0,8,02,00,00,00,00,00,00,00,
6820701,00000100,false,Rx,0,8,00,00,00,00,B3,01,64,00,
6830664,00000101,false,Rx,0,8,00,FF,3C,00,00,DE,00,00,
6840739,00000102,false,Rx,0,8,02,9A,01,00,00,C8,49,00,
6850762,00000200,false,Rx,0,8,FF,00,00,00,FA,00,43,B2,
6881507,00000108,false,Rx,0,8,01,F4,01,0F,B3,01,00,00,
6881796,00000109,false,Rx,0,8,02,00,00,00,01,20,00,00,
6882072,00000208,false,Rx,0,8,FF,F4,01,F0,00,00,FA,00,
6882231,00000209,false,Rx,0,8,02,00,00,00,00,00,00,00,
6920841,00000100,false,Rx,0,8,00,00,00,00,B3,01,64,00,
6930752,00000101,false,Rx,0,8,00,FF,3C,00,00,DE,00,00,
6940805,00000102,false,Rx,0,8,02,9A,01,00,00,C9,49,00,
6950943,00000200,false,Rx,0,8,FF,00,00,00,FA,00,43,B2,
6981620,00000108,false,Rx,0,8,01,F4,01,0F,B3,01,00,00,
6981907,00000109,false,Rx,0,8,02,00,00,00,01,20,00,00,
6982183,00000208,false,Rx,0,8,FF,F4,01,F0,00,00,FA,00,
6982458,00000209,false,Rx,0,8,02,00,00,00,00,00,00,00,
7020964,00000100,false,Rx,0,8,00,00,00,00,B3,01,64,00,
7030848,00000101,false,Rx,0,8,00,FF,3C,00,00,DE,00,00,
7040899,00000102,false,Rx,0,8,02,9A,01,00,00,C9,49,00,
7050931,00000200,false,Rx,0,8,FF,00,00,00,FA,00,43,B2,
7081698,00000108,false,Rx,0,8,01,F4,01,0F,B3,01,00,00,
7081869,00000109,false,Rx,0,8,02,00,00,00,01,20,00,00,
7082144,00000208,false,Rx,0,8,FF,F4,01,F0,00,00,FA,00,
7082420,00000209,false,Rx,0,8,02,00,00,00,00,00,00,00,
7121052,00000100,false,Rx,0,8,00,00,00,00,B3,01,64,00,
7131019,00000101,false,Rx,0,8,00,FF,3C,00,00,DE,00,00,
7140938,00000102,false,Rx,0,8,02,9A,01,00,00,C9,49,00,
7151008,00000200,false,Rx,0,8,FF,00,00,00,FA,00,43,B2,
7181622,00000108,false,Rx,0,8,01,F4,01,0F,B3,01,00,00,
7181908,00000109,false,Rx,0,8,02,00,00,00,01,20,00,00,
7182184,00000208,false,Rx,0,8,FF,F4,01,F0,00,00,FA,00,
7182343,00000209,false,Rx,0,8,02,00,00,00,00,00,00,00,
7221058,00000100,false,Rx,0,8,00,00,00,00,B3,01,64,00,
7231046,00000101,false,Rx,0,8,00,FF,3C,00,00,DE,00,00,
7241097,00000102,false,Rx,0,8,02,9A,01,00,00,C9,49,00,
7251053,00000200,false,Rx,0,8,FF,00,00,00,FA,00,43,B2,
7281602,00000108,false,Rx,0,8,01,F4,01,0F,B3,01,00,00,
7281889,00000109,false,Rx,0,8,02,00,00,00,01,20,00,00,
7282164,00000208,false,Rx,0,8,FF,F4,01,F0,00,00,FA,00,
7282323,00000209,false,Rx,0,8,02,00,00,00,00,00,00,00,
7321271,00000100,false,Rx,0,8,00,00,00,00,B3,01,64,00,
7331133,00000101,false,Rx,0,8,00,FF,3C,00,00,DE,00,00,
7341208,00000102,false,Rx,0,8,02,9A,01,00,00,C9,49,00,
7352420,00000200,false,Rx,0,8,FF,00,00,00,FA,00,43,B2,
7381662,00000108,false,Rx,0,8,01,F4,01,0F,B3,01,00,00,
7381830,00000109,false,Rx,0,8,02,00,00,00,01,20,00,00,
7382107,00000208,false,Rx,0,8,FF,F4,01,F0,00,00,FA,00,
7382383,00000209,false,Rx,0,8,02,00,00,00,00,00,00,00,
7421338,00000100,false,Rx,0,8,00,00,00,00,B3,01,64,00,
7431295,00000101,false,Rx,0,8,00,FF,3C,00,00,DE,00,00,
7441321,00000102,false,Rx,0,8,02,9A,01,00,00,C9,49,00,
7451387,00000200,false,Rx,0,8,FF,00,00,00,FA,00,43,B2,
7481479,00000108,false,Rx,0,8,01,F4,01,0F,B3,01,00,00,
7481772,00000109,false,Rx,0,8,02,00,00,00,01,20,00,00,
7481961,00000208,false,Rx,0,8,FF,F4,01,F0,00,00,FA,00,
7482245,00000209,false,Rx,0,8,02,00,00,00,00,00,00,00,
7521441,00000100,false,Rx,0,8,00,00,00,00,B3,01,64,00,
7531406,00000101,false,Rx,0,8,00,FF,3C,00,00,DE,00,00,
7541404,00000102,false,Rx,0,8,02,9A,01,00,00,C9,49,00,
7551447,00000200,false,Rx,0,8,FF,00,00,00,FA,00,43,B2,
7581550,00000108,false,Rx,0,8,01,F4,01,0F,B3,01,00,00,
7581845,00000109,false,Rx,0,8,02,00,00,00,01,20,00,00,
7582120,00000208,false,Rx,0,8,FF,F4,01,F0,00,00,FA,00,
7582309,00000209,false,Rx,0,8,02,00,00,00,00,00,00,00,
7621483,00000100,false,Rx,0,8,00,00,00,00,B3,01,64,00,
7631431,00000101,false,Rx,0,8,00,FF,3C,00,00,DE,00,00,
7641544,00000102,false,Rx,0,8,02,9A,01,00,00,C9,49,00,
7651526,00000200,false,Rx,0,8,FF,00,00,00,FA,00,43,B2,
7681524,00000108,false,Rx,0,8,01,F4,01,0F,B3,01,00,00,
7681811,00000109,false,Rx,0,8,02,00,00,00,01,20,00,00,
7682087,00000208,false,Rx,0,8,FF,F4,01,F0,00,00,FA,00,
7682362,00000209,false,Rx,0,8,02,00,00,00,00,00,00,00,
7721662,00000100,false,Rx,0,8,00,00,00,00,B3,01,64,00,
7731615,00000101,false,Rx,0,8,00,FF,3C,00,00,DE,00,00,
7741563,00000102,false,Rx,0,8,02,9A,01,00,00,C9,49,00,
7751614,00000200,false,Rx,0,8,FF,00,00,00,FA,00,43,B2,
7781490,00000108,false,Rx,0,8,01,F4,01,0F,B3,01,00,00,
7781795,00000109,false,Rx,0,8,02,00,00,00,01,20,00,00,
7781979,00000208,false,Rx,0,8,FF,F4,01,F0,00,00,FA,00,
7782254,00000209,false,Rx,0,8,02,00,00,00,00,00,00,00,
7821660,00000100,false,Rx,0,8,00,00,00,00,B3,01,64,00,
7831618,00000101,false,Rx,0,8,00,FF,3C,00,00,DE,00,00,
7841671,00000102,false,Rx,0,8,02,9A,01,00,00,C9,49,00,
7851656,00000200,false,Rx,0,8,FF,00,00,00,FA,00,43,B2,
7881430,00000108,false,Rx,0,8,01,F4,01,0F,B3,01,00,00,
7881716,00000109,false,Rx,0,8,02,00,00,00,01,20,00,00,
7882000,00000208,false,Rx,0,8,FF,F4,01,F0,00,00,FA,00,
7882276,00000209,false,Rx,0,8,02,00,00,00,00,00,00,00,
7921808,00000100,false,Rx,0,8,00,00,00,00,B3,01,64,00,
7931762,00000101,false,Rx,0,8,00,FF,3C,00,00,DE,00,00,
7941778,00000102,false,Rx,0,8,02,9A,01,00,00,C9,49,00,
7951924,00000200,false,Rx,0,8,FF,00,00,00,FA,00,43,B2,
7981481,00000108,false,Rx,0,8,01,F4,01,0F,B3,01,00,00,
7981773,00000109,false,Rx,0,8,02,00,00,00,01,20,00,00,
7981932,00000208,false,Rx,0,8,FF,F4,01,F0,00,00,FA,00,
7982208,00000209,false,Rx,0,8,02,00,00,00,00,00,00,00,
8021948,00000100,false,Rx,0,8,00,00,00,00,B3,01,64,00,
8031901,00000101,false,Rx,0,8,00,FF,3C,00,00,DE,00,00,
8041920,00000102,false,Rx,0,8,02,9A,01,00,00,C9,49,00,
8051911,00000200,false,Rx,0,8,FF,00,00,00,FA,00,43,B2,
8087051,00000108,false,Rx,0,8,01,F4,01,0F,B3,01,00,00,
8087327,00000109,false,Rx,0,8,02,00,00,00,01,20,00,00,
8087505,00000208,false,Rx,0,8,FF,F4,01,F0,00,00,FA,00,
8087855,00000209,false,Rx,0,8,02,00,00,00,00,00,00,00,
8122033,00000100,false,Rx,0,8,00,00,00,00,B3,01,64,00,
8131983,00000101,false,Rx,0,8,00,FF,3C,00,00,DE,00,00,
8142001,00000102,false,Rx,0,8,02,9A,01,00,00,C9,49,00,
8151973,00000200,false,Rx,0,8,FF,00,00,00,FA,00,43,B2,
8181409,00000108,false,Rx,0,8,01,F4,01,0F,B3,01,00,00,
8181694,00000109,false,Rx,0,8,02,00,00,00,01,20,00,00,
8181978,00000208,false,Rx,0,8,FF,F4,01,F0,00,00,FA,00,
8182136,00000209,false,Rx,0,8,02,00,00,00,00,00,00,00,
8222129,00000100,false,Rx,0,8,00,00,00,00,B3,01,64,00,
8232076,00000101,false,Rx,0,8,00,FF,3C,00,00,DE,00,00,
8242094,00000102,false,Rx,0,8,02,9A,01,00,00,C9,49,00,
8252127,00000200,false,Rx,0,8,FF,00,00,00,FA,00,43,B2,
8281468,00000108,false,Rx,0,8,01,F4,01,0F,B3,01,00,00,
8281761,00000109,false,Rx,0,8,02,00,00,00,01,20,00,00,
8282037,00000208,false,Rx,0,8,FF,F4,01,F0,00,00,FA,00,
8282196,00000209,false,Rx,0,8,02,00,00,00,00,00,00,00,
8322202,00000100,false,Rx,0,8,00,00,00,00,B3,01,64,00,
8332164,00000101,false,Rx,0,8,00,FF,3C,00,00,DE,00,00,
8342186,00000102,false,Rx,0,8,02,9A,01,00,00,C9,49,00,
8352244,00000200,false,Rx,0,8,FF,00,00,00,FA,00,43,B2,
8385149,00000108,false,Rx,0,8,01,F4,01,0F,B3,01,00,00,
8385309,00000109,false,Rx,0,8,02,00,00,00,01,20,00,00,
8385591,00000208,false,Rx,0,8,FF,F4,01,F0,00,00,FA,00,
8385875,00000209,false,Rx,0,8,02,00,00,00,00,00,00,00,
8422319,00000100,false,Rx,0,8,00,00,00,00,B3,01,64,00,
8432276,00000101,false,Rx,0,8,00,FF,3C,00,00,DE,00,00,
8442296,00000102,false,Rx,0,8,02,9A,01,00,00,C9,49,00,
8452480,00000200,false,Rx,0,8,FF,00,00,00,FA,00,43,B2,
8481459,00000108,false,Rx,0,8,01,F4,01,0F,B3,01,00,00,
8481745,00000109,false,Rx,0,8,02,00,00,00,01,20,00,00,
8482020,00000208,false,Rx,0,8,FF,F4,01,F0,00,00,FA,00,
8482184,00000209,false,Rx,0,8,02,00,00,00,00,00,00,00,
8522504,00000100,false,Rx,0,8,00,00,00,00,B3,01,64,00,
8532458,00000101,false,Rx,0,8,00,FF,3C,00,00,DE,00,00,
8542369,00000102,false,Rx,0,8,02,9A,01,00,00,C9,49,00,
8552433,00000200,false,Rx,0,8,FF,00,00,00,FA,00,43,B2,
8581389,00000108,false,Rx,0,8,01,F4,01,0F,B3,01,00,00,
8581677,00000109,false,Rx,0,8,02,00,00,00,01,20,00,00,
8581961,00000208,false,Rx,0,8,FF,F4,01,F0,00,00,FA,00,
8582120,00000209,false,Rx,0,8,02,00,00,00,00,00,00,00,
8622523,00000100,false,Rx,0,8,00,00,00,00,B3,01,64,00,
8632476,00000101,false,Rx,0,8,00,FF,3C,00,00,DE,00,00,
8642497,00000102,false,Rx,0,8,02,9A,01,00,00,C9,49,00,
8652576,00000200,false,Rx,0,8,FF,00,00,00,FA,00,43,B2,
8681448,00000108,false,Rx,0,8,01,F4,01,0F,B3,01,00,00,
